;Version, 1, 0
;sp_s11dB20_curve (v_drv_01_en=vdd),;sp_s12dB20_curve (v_drv_01_en=vdd),;sp_s21dB20_curve (v_drv_01_en=vdd),;sp_s22dB20_curve (v_drv_01_en=vdd),;sp_stability (v_drv_01_en=vdd)
;X, Y,;X, Y,;X, Y,;X, Y,;X, Y
;Re, Re,;Re, Re,;Re, Re,;Re, Re,;Re, Re
;freq, S-Param,;freq, S-Param,;freq, S-Param,;freq, S-Param,;freq, S-Param
;Hz, dB,;Hz, dB,;Hz, dB,;Hz, dB,;Hz, yunit
1000000000,-0.004877805844995835,1000000000,-223.7120382280498,1000000000,-97.82131586947824,1000000000,-0.754626706978242,1000000000,1.09076535491393
1110000000,-0.006061342655311448,1110000000,-216.9330857070935,1110000000,-92.32266115734119,1110000000,-0.7686647188325049,1110000000,1.092529659775052
1220000000,-0.007391821421471579,1220000000,-210.7037459903786,1220000000,-87.2655020924045,1220000000,-0.7850846649078104,1220000000,1.094596948893977
1330000000,-0.008876949005232698,1330000000,-204.9275237643085,1330000000,-82.57404486203384,1330000000,-0.8042432151469724,1330000000,1.097013976551897
1440000000,-0.01052554405085395,1440000000,-199.5285371151775,1440000000,-78.18850034625979,1440000000,-0.8265839251315696,1440000000,1.099839204290699
1550000000,-0.01234767367604829,1550000000,-194.4461880425451,1550000000,-74.06086973533856,1550000000,-0.8526623430728486,1550000000,1.103146311339531
1660000000,-0.01435481749077939,1660000000,-189.6313716005565,1660000000,-70.15197598416827,1660000000,-0.883180054923812,1660000000,1.107029012290624
1770000000,-0.01656006383754188,1770000000,-185.043740681511,1770000000,-66.42934186954402,1770000000,-0.9190311954323258,1770000000,1.111607734060019
1880000000,-0.0189783440641233,1880000000,-180.6497066845407,1880000000,-62.86565192293133,1880000000,-0.961366542264414,1880000000,1.117038976375276
1990000000,-0.0216267118591671,1990000000,-176.4209639531531,1990000000,-59.43762651833656,1990000000,-1.011682670325279,1990000000,1.123528603249932
2100000000,-0.02452467613155974,2100000000,-172.3333979694494,2100000000,-56.12519718547406,2100000000,-1.071947146896926,2100000000,1.131350978904482
2210000000,-0.02769459772337994,2210000000,-168.3662876413593,2210000000,-52.91091457148145,2210000000,-1.144775911037626,2210000000,1.140876920840296
2320000000,-0.03116216257261113,2320000000,-164.5017500794933,2320000000,-49.77955280637671,2320000000,-1.233686430371719,2320000000,1.152615139830205
2430000000,-0.03495694678628544,2430000000,-160.7244090529694,2430000000,-46.7179026989675,2430000000,-1.343460458537817,2430000000,1.167274557347594
2540000000,-0.03911309272384866,2540000000,-157.0213017034295,2540000000,-43.71477661088087,2540000000,-1.480662662861077,2540000000,1.185859197132866
2650000000,-0.04367011977284894,2650000000,-153.3820772749842,2650000000,-40.76128489240445,2650000000,-1.654371511510443,2650000000,1.209813876976291
2760000000,-0.04867389933643987,2760000000,-149.7995898167117,2760000000,-37.85149041266167,2760000000,-1.877169519227018,2760000000,1.24124767652813
2870000000,-0.0541778309839851,2870000000,-146.2710393555795,2870000000,-34.98359913124948,2870000000,-2.16635769750927,2870000000,1.283269377878041
2980000000,-0.06024426630723136,2980000000,-142.7998428906702,2980000000,-32.16187068787264,2980000000,-2.545050281862377,2980000000,1.340455523018215
3090000000,-0.0669462393605391,3090000000,-139.3983224159464,3090000000,-29.39933823587961,3090000000,-3.041863283359469,3090000000,1.419361291433256
3200000000,-0.07436957874456616,3200000000,-136.0908607463746,3200000000,-26.72098986208431,3200000000,-3.685386178654402,3200000000,1.528512175401587
3310000000,-0.0826154975474957,3310000000,-132.9160642859356,3310000000,-24.16595195999633,3310000000,-4.484031130480241,3310000000,1.675717324084478
3420000000,-0.0918037853352997,3420000000,-129.9246905574044,3420000000,-21.78543334753919,3420000000,-5.375164989558571,3420000000,1.856763998464445
3530000000,-0.10207676262069,3530000000,-127.1692927143131,3530000000,-19.63238312327188,3530000000,-6.147813054358597,3530000000,2.029494167154089
3640000000,-0.113604205104872,3640000000,-124.6855471808097,3640000000,-17.74282902678284,3640000000,-6.465277702976888,3640000000,2.105034342810692
3750000000,-0.1265895079009593,3750000000,-122.4746876256428,3750000000,-16.11832000913085,3750000000,-6.164524926013822,3750000000,2.033384812258655
3860000000,-0.1412774495956068,3860000000,-120.5007021839639,3860000000,-14.72313033108022,3860000000,-5.46077823325155,3860000000,1.875126415219575
3970000000,-0.157964041628198,3970000000,-118.7047273071502,3970000000,-13.49865889725783,3970000000,-4.670508345149655,3970000000,1.712046759929256
4080000000,-0.1770091160032641,4080000000,-117.0246859680639,4080000000,-12.38307182020844,4080000000,-3.968058398419056,4080000000,1.57903492036168
4190000000,-0.1988525325833468,4190000000,-115.408279058533,4190000000,-11.32429726810448,4190000000,-3.400237911841359,4190000000,1.479105605458815
4300000000,-0.224035212096566,4300000000,-113.8169538877282,4300000000,-10.28399668149813,4300000000,-2.958132899268785,4300000000,1.405698337039605
4410000000,-0.2532266693517067,4410000000,-112.224406957177,4410000000,-9.236069678734081,4410000000,-2.617869099455936,4410000000,1.351688901597308
4520000000,-0.2872614000526209,4520000000,-110.6133316954939,4520000000,-8.163403450200224,4520000000,-2.355890791807528,4520000000,1.311520630420566
4630000000,-0.3271874732913346,4630000000,-108.9723388153104,4630000000,-7.054794399100927,4630000000,-2.153038604390703,4630000000,1.281236075880845
4740000000,-0.3743321798123428,4740000000,-107.2936297432695,4740000000,-5.902622556908797,4740000000,-1.994752059739078,4740000000,1.258086927414405
4850000000,-0.4303918837572905,4850000000,-105.5714051668825,4850000000,-4.701260879937535,4850000000,-1.870233606990245,4850000000,1.240165106319452
4960000000,-0.497556841042714,4960000000,-103.8008258585206,4960000000,-3.446036637982652,4960000000,-1.771518478213029,4960000000,1.226131987895247
5070000000,-0.5786876108870647,5070000000,-101.9773474545001,5070000000,-2.132566613883976,5070000000,-1.692705590675066,5070000000,1.215033901971842
5180000000,-0.6775695387553489,5180000000,-100.0962999042223,5180000000,-0.7563368618851891,5180000000,-1.629379117227742,5180000000,1.206179109667431
5290000000,-0.799289038162236,5290000000,-98.15263375981603,5290000000,0.6875507783514767,5290000000,-1.578188548920603,5290000000,1.199055765289757
5400000000,-0.9508070464428813,5400000000,-96.14080348460908,5400000000,2.204495212630517,5400000000,-1.53654657871037,5400000000,1.193276614650307
5510000000,-1.141866153894644,5510000000,-94.05481329155262,5510000000,3.800350140076667,5510000000,-1.502410566267199,5510000000,1.188541108658268
5620000000,-1.386492462269213,5620000000,-91.88854060342425,5620000000,5.48110051280343,5620000000,-1.474122667335021,5620000000,1.184609093525531
5730000000,-1.705620588450615,5730000000,-89.6366364082829,5730000000,7.251962123440427,5730000000,-1.450293969123986,5730000000,1.181282888464434
5840000000,-2.131969946846005,5840000000,-87.29672071090977,5840000000,9.11518611157868,5840000000,-1.429733357433985,5840000000,1.178397342382292
5950000000,-2.719679213345682,5950000000,-84.87455917950543,5950000000,11.06488228351238,5950000000,-1.411456431918514,5950000000,1.175822026717879
6060000000,-3.564314638224866,6060000000,-82.3959876436269,6060000000,13.07509458443359,6060000000,-1.394897916197691,6060000000,1.173488736435878
6170000000,-4.845034206558896,6170000000,-79.93260802036936,6170000000,15.07410514240504,6170000000,-1.380630365651604,6170000000,1.171470747602576
6280000000,-6.908300649785123,6280000000,-77.64648460713499,6280000000,16.89973794307274,6280000000,-1.371895404794506,6280000000,1.170128083882672
6390000000,-10.4093818372721,6390000000,-75.82244369429755,6390000000,18.26705917986721,6390000000,-1.375362302777895,6390000000,1.17017365465086
6500000000,-16.49156815351942,6500000000,-74.76646853889693,6500000000,18.86998223724149,6500000000,-1.395202161078254,6500000000,1.172200454404698
6610000000,-22.39083327276575,6610000000,-74.54326254619821,6610000000,18.64370445927766,6610000000,-1.424009773726713,6610000000,1.175763988594353
6720000000,-17.46632245352563,6720000000,-74.91745723861727,6720000000,17.82349912370579,6720000000,-1.450254727217751,6720000000,1.179583643274907
6830000000,-13.90256115884677,6830000000,-75.59913755144362,6830000000,16.69919008175762,6830000000,-1.46989497520159,6830000000,1.182783197728633
6940000000,-11.54129797048914,6940000000,-76.40235976081391,6940000000,15.45663375848231,6940000000,-1.484323774750424,6940000000,1.185232766412914
7050000000,-9.72793253509378,7050000000,-77.23589533158561,7050000000,14.1869752261441,7050000000,-1.49569212634749,7050000000,1.187127757073178
7160000000,-8.267144570426829,7160000000,-78.05818476780202,7160000000,12.93169426840648,7160000000,-1.505458018018079,7160000000,1.188681539003372
7270000000,-7.082941528080663,7270000000,-78.8495222517995,7270000000,11.71042064975347,7270000000,-1.514431208743,7270000000,1.190042970073367
7380000000,-6.124130002010788,7380000000,-79.59984393536642,7380000000,10.53314572730594,7380000000,-1.523030834480024,7380000000,1.191301564530375
7490000000,-5.347360634671524,7490000000,-80.30393701380498,7490000000,9.405013274805418,7490000000,-1.531465193347713,7490000000,1.192507447254554
7600000000,-4.715892889477423,7600000000,-80.9594900884175,7600000000,8.328269013879796,7600000000,-1.539831019846624,7600000000,1.193687112576565
7710000000,-4.199675566272297,7710000000,-81.56612917209696,7710000000,7.303224498579516,7710000000,-1.548165270801623,7710000000,1.194853378949535
7820000000,-3.774779928955899,7820000000,-82.12480640228206,7820000000,6.328868289575491,7820000000,-1.556472270073704,7820000000,1.196011257956405
7930000000,-3.422439225089118,7930000000,-82.63735262823727,7930000000,5.40331325170878,7930000000,-1.564738389773507,7930000000,1.197161348295222
8040000000,-3.128033250781029,8040000000,-83.10614000165003,8040000000,4.524133846531167,8040000000,-1.572940313285061,8040000000,1.198301799007688
8150000000,-2.88018521722044,8150000000,-83.5338330774011,8150000000,3.688614913585616,8150000000,-1.581049863135131,8150000000,1.199429454152978
8260000000,-2.67002126087645,8260000000,-83.92321206206093,8260000000,2.893928303450979,8260000000,-1.589036904939337,8260000000,1.200540526909227
8370000000,-2.490588257855612,8370000000,-84.27705260749661,8370000000,2.137252965709582,8370000000,-1.59687112645324,8370000000,1.201631000065866
8480000000,-2.336406050384067,8480000000,-84.59804800742872,8480000000,1.415852634508195,8480000000,-1.604523134903367,8480000000,1.202696865219445
8590000000,-2.203126754390041,8590000000,-84.88876199059889,8590000000,0.7271229185180226,8590000000,-1.611965129470089,8590000000,1.203734265492388
8700000000,-2.087276616932023,8700000000,-85.15160287327488,8700000000,0.06861703300185229,8700000000,-1.619171303509383,8700000000,1.204739579726847
8810000000,-1.986060432466467,8810000000,-85.38881217527023,8810000000,-0.5619429298010465,8810000000,-1.626118072081286,8810000000,1.205709470672496
8920000000,-1.897212981169075,8920000000,-85.60246272442086,8920000000,-1.166664216559766,8920000000,-1.632784185251067,8920000000,1.206640910728698
9030000000,-1.818885712027196,9030000000,-85.79446275258758,9030000000,-1.74748761776549,9030000000,-1.639150765889277,9030000000,1.207531193493176
9140000000,-1.749559857900445,9140000000,-85.9665635770552,9140000000,-2.306195255269645,9140000000,-1.645201297146847,9140000000,1.208377936208261
9250000000,-1.687979427616361,9250000000,-86.12036924425058,9250000000,-2.844420329132011,9250000000,-1.650921576056626,9250000000,1.209179076270549
9360000000,-1.633099207312424,9360000000,-86.2573470628615,9360000000,-3.363657750662354,9360000000,-1.656299644179343,9360000000,1.209932863804223
9470000000,-1.58404415226425,9470000000,-86.37883833430736,9470000000,-3.865274969438212,9470000000,-1.661325702513711,9470000000,1.210637851564429
9580000000,-1.540077471095685,9580000000,-86.4860688486519,9580000000,-4.350522562255954,9580000000,-1.6659920156329,9580000000,1.211292883002565
9690000000,-1.500575382444974,9690000000,-86.58015888936293,9690000000,-4.820544327319361,9690000000,-1.670292808439143,9690000000,1.211897079041547
9800000000,-1.465007024579886,9800000000,-86.66213260697143,9800000000,-5.276386743642756,9800000000,-1.674224157864105,9800000000,1.212449823926525
9910000000,-1.432918368698594,9910000000,-86.73292669810303,9910000000,-5.719007732092418,9910000000,-1.677783881393345,9910000000,1.212950750436714
10020000000,-1.403919261914376,10020000000,-86.79339837513081,10020000000,-6.149284703297248,10020000000,-1.680971423622319,10020000000,1.213399724642398
10130000000,-1.377672931283296,10130000000,-86.84433264210404,10130000000,-6.56802190807784,10130000000,-1.683787742007124,10130000000,1.21379683038203
10240000000,-1.353887434491671,10240000000,-86.88644891049314,10240000000,-6.975957123957997,10240000000,-1.686235192639829,10240000000,1.214142353587153
10350000000,-1.332308659061823,10350000000,-86.92040699797131,10350000000,-7.373767721013447,10350000000,-1.688317416831871,10350000000,1.214436766577015
10460000000,-1.312714560257959,10460000000,-86.94681255782085,10460000000,-7.762076154704411,10460000000,-1.690039229179104,10460000000,1.21468071243015
10570000000,-1.294910395151738,10570000000,-86.96622198747224,10570000000,-8.141454934264596,10570000000,-1.691406507684985,10570000000,1.214874989527557
10680000000,-1.278724761978138,10680000000,-86.97914686348157,10680000000,-8.512431114035502,10680000000,-1.69242608653172,10680000000,1.215020536364496
10790000000,-1.264006293771803,10790000000,-86.98605794787912,10790000000,-8.875490352769638,10790000000,-1.69310565192948,10790000000,1.215118416705901
10900000000,-1.250620886118103,10900000000,-86.98738880766065,10900000000,-9.231080582775292,10900000000,-1.693453641511335,10900000000,1.215169805165572
11010000000,-1.238449363029102,11010000000,-86.98353908593093,11010000000,-9.579615327519267,11010000000,-1.693479147656732,11010000000,1.215175973277087
11120000000,-1.227385503766419,11120000000,-86.9748774596751,11120000000,-9.921476702777452,11120000000,-1.693191825027518,11120000000,1.215138276109938
11230000000,-1.217334368355608,11230000000,-86.96174431592425,11230000000,-10.25701813321797,11230000000,-1.692601802650097,11230000000,1.215058139490441
11340000000,-1.208210871282329,11340000000,-86.94445417482262,11340000000,-10.58656681304755,11340000000,-1.691719600676024,11340000000,1.214937047857808
11450000000,-1.199938562258966,11450000000,-86.92329788532592,11450000000,-10.91042593657169,11450000000,-1.690556052063734,11450000000,1.214776532800054
11560000000,-1.192448580404062,11560000000,-86.89854461646171,11560000000,-11.22887672172664,11560000000,-1.689122229226376,11560000000,1.214578162285559
11670000000,-1.185678754214889,11670000000,-86.87044366477899,11670000000,-11.5421802473367,11670000000,-1.687429375748122,11670000000,1.214343530612824
11780000000,-1.179572824531586,11780000000,-86.83922609633912,11780000000,-11.85057912257066,11780000000,-1.68548884314385,11780000000,1.214074249081937
11890000000,-1.174079771641654,11890000000,-86.80510623971989,11890000000,-12.15429900519726,11890000000,-1.683312032657493,11890000000,1.213771937392857
12000000000,-1.169153230835722,12000000000,-86.76828304472008,12000000000,-12.45354998344567,12000000000,-1.680910342021909,12000000000,1.213438215764346
