;Version, 1, 0
;sp_s11dB20_curve (v_drv_01_en=0),;sp_s12dB20_curve (v_drv_01_en=0),;sp_s21dB20_curve (v_drv_01_en=0),;sp_s22dB20_curve (v_drv_01_en=0),;sp_stability (v_drv_01_en=0)
;X, Y,;X, Y,;X, Y,;X, Y,;X, Y
;Re, Re,;Re, Re,;Re, Re,;Re, Re,;Re, Re
;freq, S-Param,;freq, S-Param,;freq, S-Param,;freq, S-Param,;freq, S-Param
;Hz, dB,;Hz, dB,;Hz, dB,;Hz, dB,;Hz, yunit
1000000000,-0.004885266073594592,1000000000,-206.748450794243,1000000000,-96.91008492006738,1000000000,-0.7546487660189631,1000000000,1.090768125069747
1110000000,-0.006072991608094369,1110000000,-200.3151930891227,1110000000,-91.40635041632922,1110000000,-0.7687093245358166,1110000000,1.092535270389807
1220000000,-0.007409345254125769,1220000000,-194.4087560162058,1220000000,-86.34352816672771,1220000000,-0.7851692942823612,1220000000,1.094607613951039
1330000000,-0.008902523264814704,1330000000,-188.9384622363007,1330000000,-81.64577187459508,1330000000,-0.8043959272775243,1330000000,1.097033264019921
1440000000,-0.01056194413814714,1440000000,-183.8331750578006,1440000000,-77.25324047493456,1440000000,-0.8268486573126476,1440000000,1.099872726161684
1550000000,-0.01239840883748641,1550000000,-179.0360425453956,1550000000,-73.11788048352473,1550000000,-0.8531066288517459,1550000000,1.103202739036689
1660000000,-0.01442429363146631,1660000000,-174.5008465786736,1660000000,-69.20045554117807,1660000000,-0.8839063031631502,1660000000,1.107121577529918
1770000000,-0.01665378170598322,1770000000,-170.1894179134547,1770000000,-65.46842343879267,1770000000,-0.9201932580381822,1770000000,1.111756463106501
1880000000,-0.01910314090641198,1880000000,-166.0697748105217,1880000000,-61.89439786045543,1880000000,-0.9631942234624269,1880000000,1.117274047936705
1990000000,-0.02179105661757166,1990000000,-162.1147662550715,1990000000,-58.45502344070664,1990000000,-1.01451830405877,1990000000,1.123895455135321
2100000000,-0.02473903076233972,2100000000,-158.3010800971391,2100000000,-55.13015394693146,2100000000,-1.076300746678345,2100000000,1.131918184183368
2210000000,-0.02797186040143036,2210000000,-154.6085300471877,2210000000,-51.9022663956348,2210000000,-1.151409279868618,2210000000,1.141748535074989
2320000000,-0.03151821261491828,2320000000,-151.0195752923716,2320000000,-48.7560773041553,2320000000,-1.243743026219152,2320000000,1.15395041959739
2430000000,-0.0354113163420209,2430000000,-147.5190609681363,2430000000,-45.67835771645196,2430000000,-1.358668455882185,2430000000,1.169320110779809
2540000000,-0.03968979702626341,2540000000,-144.0942036037819,2540000000,-42.65797692940638,2540000000,-1.50365633231795,2540000000,1.189002613925167
2650000000,-0.04439868647163821,2650000000,-140.7348887672716,2650000000,-39.68624623911025,2650000000,-1.68920501552338,2650000000,1.214675402729188
2760000000,-0.04959064880633336,2760000000,-137.4344015881081,2760000000,-36.75768632380123,2760000000,-1.93014277376436,2760000000,1.248840898766107
2870000000,-0.05532747447714523,2870000000,-134.1907672572867,2870000000,-33.8713975042532,2870000000,-2.24733793723768,2870000000,1.295289514363015
2980000000,-0.06168190857342156,2980000000,-131.0088974899316,2980000000,-31.03323045135177,2980000000,-2.669533602404441,2980000000,1.359804875561965
3090000000,-0.06873989868436173,3090000000,-127.9035963841283,3090000000,-28.25881196139803,3090000000,-3.233954694375877,3090000000,1.451100782885588
3200000000,-0.07660337240511694,3200000000,-124.90289940583,3200000000,-25.57690042929619,3200000000,-3.981184501641005,3200000000,1.58146260806116
3310000000,-0.08539368688628828,3310000000,-122.0498357833881,3310000000,-23.03116199363304,3310000000,-4.931852475206999,3310000000,1.764379644283145
3420000000,-0.09525593421219987,3420000000,-119.3987314964303,3420000000,-20.67648507348595,3420000000,-6.019448378885795,3420000000,1.999729162753136
3530000000,-0.1063643400478651,3530000000,-117.0019989325955,3530000000,-18.56577978939315,3530000000,-6.971834534230591,3530000000,2.231459399130231
3640000000,-0.1189290702889175,3640000000,-114.8893334707563,3640000000,-16.72918285824281,3640000000,-7.327941688282991,3640000000,2.324831982209227
3750000000,-0.1332048785856873,3750000000,-113.0517231924811,3750000000,-15.15807442809871,3750000000,-6.899262317941489,3750000000,2.212861697272636
3860000000,-0.1495021892571698,3860000000,-111.4436003896895,3860000000,-13.80723573388188,3860000000,-6.028666591472497,3860000000,2.001805449423833
3970000000,-0.1682014076841235,3970000000,-110.0011448227791,3970000000,-12.61315770152685,3970000000,-5.115993943870301,3970000000,1.802131849042461
4080000000,-0.1897715175717572,4080000000,-108.6620565493873,4080000000,-11.51381846339418,4080000000,-4.338183236975979,4080000000,1.647763643019475
4190000000,-0.214794426758729,4190000000,-107.3764408303306,4190000000,-10.45957241021329,4190000000,-3.724616088248473,4190000000,1.535379228048868
4300000000,-0.2439971103002539,4300000000,-106.1088052960546,4300000000,-9.415151063006666,4300000000,-3.253191034091536,4300000000,1.454264890912675
4410000000,-0.2782944345455494,4410000000,-104.8355618088996,4410000000,-8.357168285996424,4410000000,-2.892656001211011,4410000000,1.39513355373909
4520000000,-0.3188467486921059,4520000000,-103.5415107888466,4520000000,-7.270607682753308,4520000000,-2.615597020009186,4520000000,1.351330889798783
4630000000,-0.367138091349313,4630000000,-102.2168392107995,4630000000,-6.145823449785092,4630000000,-2.400807922065719,4630000000,1.318320330505097
4740000000,-0.4250834651178085,4740000000,-100.8549740396487,4740000000,-4.976396513739209,4740000000,-2.232578979679757,4740000000,1.293028292366263
4850000000,-0.4951775195934501,4850000000,-99.45117924428011,4850000000,-3.757734148893401,4850000000,-2.099410981692528,4850000000,1.273350564502355
4960000000,-0.5807028274327279,4960000000,-98.00169465851737,4960000000,-2.486211395583812,4960000000,-1.992865806355852,4960000000,1.257821272545731
5070000000,-0.6860247807491971,5070000000,-96.50325006987032,5070000000,-1.158687711575473,5070000000,-1.906688021666488,5070000000,1.2453979222814
5180000000,-0.8170135717375229,5180000000,-94.95284860323515,5180000000,0.2277070257181199,5180000000,-1.836169860920134,5180000000,1.235322174262605
5290000000,-0.9816541579413872,5290000000,-93.34777052311749,5290000000,1.675565991227773,5290000000,-1.777701211107754,5290000000,1.227028789578551
5400000000,-1.190936066434469,5400000000,-91.68579968056262,5400000000,3.186976079422259,5400000000,-1.728452950400885,5400000000,1.220085265048429
5510000000,-1.460161212387508,5510000000,-89.96572626189419,5510000000,4.763012054664596,5510000000,-1.686156955164827,5510000000,1.214151489559145
5620000000,-1.810875522670848,5620000000,-88.18824011151412,5620000000,6.402839854968394,5620000000,-1.64896241135007,5620000000,1.20895338792889
5730000000,-2.27372423570076,5730000000,-86.35740864696879,5730000000,8.102234970714811,5730000000,-1.615367072378165,5730000000,1.204268217312128
5840000000,-2.892649222059972,5840000000,-84.48304283074793,5840000000,9.851212371095912,5840000000,-1.584249887067933,5840000000,1.199923323122385
5950000000,-3.730959046794457,5950000000,-82.58440209510778,5950000000,11.63031701746974,5950000000,-1.555077737393144,5950000000,1.195816616734406
6060000000,-4.879774353292903,6060000000,-80.69585800902514,6060000000,13.40495510975048,6060000000,-1.528428996170327,6060000000,1.191978043625495
6170000000,-6.468635381223779,6170000000,-78.87515281720513,6170000000,15.11712987335137,6170000000,-1.507023010475334,6170000000,1.188705210746719
6280000000,-8.674196906618755,6280000000,-77.21386330327138,6280000000,16.67497137816677,6280000000,-1.49719948688898,6280000000,1.186795386997566
6390000000,-11.70101499523865,6390000000,-75.84472744093632,6390000000,17.94540288112715,6390000000,-1.50950713078978,6390000000,1.187746120179228
6500000000,-15.53113688854559,6500000000,-74.92815018688955,6500000000,18.76762731372457,6500000000,-1.554489679088604,6500000000,1.193347414610214
6610000000,-18.1820844696961,6610000000,-74.59397028690373,6610000000,19.01135204865275,6610000000,-1.631367200497689,6610000000,1.20397115712386
6720000000,-16.22220384544335,6720000000,-74.85909641131008,6720000000,18.65914367988705,6720000000,-1.721395263677998,6720000000,1.217043420610298
6830000000,-12.95064243878759,6830000000,-75.60841258232156,6830000000,17.82551296718896,6830000000,-1.80095024961555,6830000000,1.228809356163145
6940000000,-10.31712621028222,6940000000,-76.66726211244507,6940000000,16.68442092450695,6940000000,-1.858647081503475,6940000000,1.237354170093937
7050000000,-8.357457944912701,7050000000,-77.88099027954468,7050000000,15.3897261368351,7050000000,-1.895906668969712,7050000000,1.242859821113737
7160000000,-6.902487532256343,7160000000,-79.14409200908321,7160000000,14.04602748520537,7160000000,-1.918855485082808,7160000000,1.246261482205127
7270000000,-5.809274168709935,7270000000,-80.39425025455014,7270000000,12.71461720780894,7270000000,-1.933125142039924,7270000000,1.248402351924445
7380000000,-4.97483523532004,7380000000,-81.59792930431618,7380000000,11.42788088089782,7380000000,-1.942542347626725,7380000000,1.249842343061692
7490000000,-4.327364841258472,7490000000,-82.73865871963453,7490000000,10.2010096318452,7490000000,-1.9493993301132,7490000000,1.250910957092455
7600000000,-3.816943022739214,7600000000,-83.80951663264131,7600000000,9.039517068583514,7600000000,-1.954982186552779,7600000000,1.251791097109937
7710000000,-3.408577528246591,7710000000,-84.80870750902449,7710000000,7.943667186420171,7710000000,-1.959978929097512,7710000000,1.252580267973733
7820000000,-3.077420770363752,7820000000,-85.73705050162316,7820000000,6.910998553596222,7820000000,-1.964736851418532,7820000000,1.253327917751369
7930000000,-2.805567585084355,7930000000,-86.59658092982991,7930000000,5.937743581030079,7930000000,-1.969413247379375,7930000000,1.254056845479627
8040000000,-2.579919725327964,8040000000,-87.3897905147949,8040000000,5.019618287484207,8040000000,-1.974061213112881,8040000000,1.254775230201427
8150000000,-2.390753065924153,8150000000,-88.11923489471212,8150000000,4.152254513645054,8150000000,-1.978678057815242,8150000000,1.255483372074781
8260000000,-2.230745938778132,8260000000,-88.78735384512767,8260000000,3.331428787632227,8260000000,-1.98323258421954,8260000000,1.25617748509141
8370000000,-2.094311718119826,8370000000,-89.39641502702159,8370000000,2.553175541219744,8370000000,-1.987680464497144,8370000000,1.256851841418989
8480000000,-1.977134143115983,8480000000,-89.94852831460591,8480000000,1.813834891940459,8480000000,-1.991972881913598,8480000000,1.257499986224775
8590000000,-1.875839363051842,8590000000,-90.44569780699226,8590000000,1.110063935044318,8590000000,-1.996061336887205,8590000000,1.258115422717967
8700000000,-1.787761377320593,8700000000,-90.88988987903281,8700000000,0.438828300339184,8700000000,-1.999900253188856,8700000000,1.258691992044755
8810000000,-1.710772109680863,8810000000,-91.28310227887673,8810000000,-0.2026163241379777,8810000000,-2.003448315413983,8810000000,1.259224075779581
8920000000,-1.643156791579012,8920000000,-91.62742372598544,8920000000,-0.8167471162270822,8920000000,-2.006669072885015,8920000000,1.259706694563152
9030000000,-1.583521506022209,9030000000,-91.92507699871396,9030000000,-1.405798323327281,9030000000,-2.009531120149286,9030000000,1.260135545703125
9140000000,-1.53072383440849,9140000000,-92.17844170917436,9140000000,-1.971785001256651,9140000000,-2.012008035227533,9140000000,1.26050700492528
9250000000,-1.483820290846435,9250000000,-92.39005596025932,9250000000,-2.516525381670703,9250000000,-2.014078181928757,9250000000,1.260818107212321
9360000000,-1.442026088526128,9360000000,-92.56259870969876,9360000000,-3.041661450850524,9360000000,-2.015724438961524,9360000000,1.261066515673358
9470000000,-1.404684059440231,9470000000,-92.69885668118928,9470000000,-3.548677604236159,9470000000,-2.016933892679395,9470000000,1.261250483801963
9580000000,-1.371240435075412,9580000000,-92.80168086815557,9580000000,-4.038917398497425,9580000000,-2.017697515230449,9580000000,1.261368814377305
9690000000,-1.341225817838491,9690000000,-92.87393801661963,9690000000,-4.513598506148695,9690000000,-2.018009840853185,9690000000,1.261420816987214
9800000000,-1.314240114332357,9800000000,-92.91846205346272,9800000000,-4.973826017174289,9800000000,-2.017868647652249,9800000000,1.261406265375475
9910000000,-1.289940517866056,9910000000,-92.93800946568426,9910000000,-5.420604246038421,9910000000,-2.017274649137683,9910000000,1.261325355368713
10020000000,-1.268031856465317,10020000000,-92.93522140390857,10020000000,-5.85484720199565,10020000000,-2.016231197891146,10020000000,1.261178663849581
10130000000,-1.248258789728732,10130000000,-92.91259402720786,10130000000,-6.277387872259638,10130000000,-2.014744002717144,10130000000,1.260967109085191
10240000000,-1.23039946112622,10240000000,-92.87245750914445,10240000000,-6.688986455699428,10240000000,-2.012820859932462,10240000000,1.260691912605905
10350000000,-1.214260303717823,10350000000,-92.81696328698172,10350000000,-7.090337671175026,10350000000,-2.010471399188958,10350000000,1.26035456278114
10460000000,-1.199671765914785,10460000000,-92.74807858484982,10460000000,-7.482077251206517,10460000000,-2.007706843940525,10460000000,1.259956780187768
10570000000,-1.18648477557227,10570000000,-92.66758695149539,10570000000,-7.864787718802421,10570000000,-2.004539786532223,10570000000,1.259500484838432
10680000000,-1.174567800060161,10680000000,-92.57709347036864,10680000000,-8.239003533481423,10680000000,-2.000983977918658,10680000000,1.258987765332972
10790000000,-1.163804390099925,10790000000,-92.47803336157702,10790000000,-8.605215681870449,10790000000,-1.997054131754138,10790000000,1.258420849950167
10900000000,-1.154091118296578,10900000000,-92.3716828440011,10900000000,-8.963875778777695,10900000000,-1.992765742749719,10900000000,1.257802079711813
11010000000,-1.145335841407802,11010000000,-92.25917131545684,11010000000,-9.315399736372969,11010000000,-1.988134918986878,11010000000,1.257133883414586
11120000000,-1.137456229358302,11120000000,-92.14149410607021,11120000000,-9.660171051735876,11120000000,-1.983178227864782,11120000000,1.256418754616918
11230000000,-1.130378515082616,11230000000,-92.01952524459583,11230000000,-9.998543756754783,11230000000,-1.977912555372781,11230000000,1.255659230564221
11340000000,-1.124036427989952,11340000000,-91.89402983783951,11340000000,-10.33084506874698,11340000000,-1.97235497818095,11340000000,1.25485787300147
11450000000,-1.118370280761869,11450000000,-91.76567579582438,11450000000,-10.65737777548785,11450000000,-1.966522648169651,11450000000,1.254017250835768
11560000000,-1.113326184676581,11560000000,-91.63504473964653,11560000000,-10.97842238407518,11560000000,-1.960432688842435,11560000000,1.253139924581283
11670000000,-1.108855373127325,11670000000,-91.5026420081094,11670000000,-11.29423905948139,11670000000,-1.954102103063297,11670000000,1.252228432514634
11780000000,-1.104913616526743,11780000000,-91.36890573693648,11780000000,-11.60506937557745,11780000000,-1.947547691581287,11780000000,1.251285278468348
11890000000,-1.101460714690351,11890000000,-91.23421502442159,11890000000,-11.91113789857701,11890000000,-1.940785981696685,11890000000,1.250312921171477
12000000000,-1.098460055120303,12000000000,-91.09889722407358,12000000000,-12.21265362060367,12000000000,-1.933833165478181,12000000000,1.249313765051812
