;Version, 1, 0
;sp_s11dB20_curve (v_drv_01_en=0),;sp_s12dB20_curve (v_drv_01_en=0),;sp_s21dB20_curve (v_drv_01_en=0),;sp_s22dB20_curve (v_drv_01_en=0),;sp_stability (v_drv_01_en=0)
;X, Y,;X, Y,;X, Y,;X, Y,;X, Y
;Re, Re,;Re, Re,;Re, Re,;Re, Re,;Re, Re
;freq, S-Param,;freq, S-Param,;freq, S-Param,;freq, S-Param,;freq, S-Param
;Hz, dB,;Hz, dB,;Hz, dB,;Hz, dB,;Hz, yunit
1000000000,-0.2121113052855536,1000000000,-178.0009883017923,1000000000,-83.11170902625014,1000000000,-0.754673843324007,1000000000,1.090771274265127
1110000000,-0.2614915573189905,1110000000,-171.5548942774274,1110000000,-77.64458040633728,1110000000,-0.7687603667782419,1110000000,1.092541690643078
1220000000,-0.3161208709501238,1220000000,-165.651757446877,1220000000,-72.6203587664272,1220000000,-0.785266525332998,1220000000,1.094619867208159
1330000000,-0.3760514391873148,1330000000,-160.1966176577895,1330000000,-67.96340899429931,1330000000,-0.8045718182655404,1330000000,1.097055479384616
1440000000,-0.4413514015806178,1440000000,-155.1155205588662,1440000000,-63.61399602239685,1440000000,-0.8271540347015437,1440000000,1.099911396021684
1550000000,-0.5121081647230339,1550000000,-150.3496847420879,1550000000,-59.52410663907338,1550000000,-0.8536195577290645,1550000000,1.103267888515133
1660000000,-0.5884321924835968,1660000000,-145.851521053859,1660000000,-55.65450381427453,1660000000,-0.8847450414253339,1660000000,1.107228489997477
1770000000,-0.6704613358523758,1770000000,-141.5818526823554,1770000000,-51.97262056179989,1770000000,-0.9215352425175076,1770000000,1.111928244563591
1880000000,-0.7583657900414463,1880000000,-137.5079359542795,1880000000,-48.45103455096056,1880000000,-0.9653040935916057,1880000000,1.117545475345184
1990000000,-0.8523537885895166,1990000000,-133.6020322239854,1990000000,-45.06635474519761,1990000000,-1.017789630727395,1990000000,1.124318822170579
2100000000,-0.9526781718573585,2100000000,-129.8403747004889,2100000000,-41.79841213889186,2100000000,-1.081318814626253,2100000000,1.13257231153251
2210000000,-1.059644001914736,2210000000,-126.2024357203786,2210000000,-38.6296898853034,2210000000,-1.159046652762489,2210000000,1.142752897464985
2320000000,-1.173617439447803,2320000000,-122.6704450354803,2320000000,-35.54496236206455,2320000000,-1.25530686900106,2320000000,1.15548773544744
2430000000,-1.295036153607722,2430000000,-119.2291483030195,2430000000,-32.53114479141191,2430000000,-1.376130687801012,2430000000,1.171673283657921
2540000000,-1.424421606491306,2540000000,-115.8658349313286,2540000000,-29.57739091070025,2540000000,-1.530017991064796,2540000000,1.192616694380247
2650000000,-1.562393645263123,2650000000,-112.5707119291103,2650000000,-26.67552106448133,2650000000,-1.729080191705791,2650000000,1.220264499969166
2760000000,-1.709687953912289,2760000000,-109.3377575410244,2760000000,-23.82091850495047,2760000000,-1.990703273458041,2760000000,1.257578468955244
2870000000,-1.867177071787018,2870000000,-106.1662429405918,2870000000,-21.0140850231483,2870000000,-2.339846779816389,2870000000,1.309158367638629
2980000000,-2.035895884648369,2980000000,-103.0631070131324,2980000000,-18.26304300683269,2980000000,-2.811812470609172,2980000000,1.382261746028368
3090000000,-2.217072731778079,3090000000,-100.0461518523761,3090000000,-15.58655306352049,3090000000,-3.454210170413925,3090000000,1.488366124042333
3200000000,-2.412167515140188,3200000000,-97.14727585508604,3200000000,-13.01736522018023,3200000000,-4.323268670176014,3200000000,1.644984638892676
3310000000,-2.622918386287216,3310000000,-94.41334730489072,3310000000,-10.60310743966436,3310000000,-5.459351563308718,3310000000,1.874840158027486
3420000000,-2.851398816135772,3420000000,-91.90042986141489,3420000000,-8.40052351656759,3420000000,-6.803440169190717,3420000000,2.188595563072375
3530000000,-3.100087763329032,3530000000,-89.65803849030065,3530000000,-6.459739385729447,3530000000,-8.016377469998373,3530000000,2.516562607270568
3640000000,-3.37195811654758,3640000000,-87.70791885669809,3640000000,-4.803051252598714,3640000000,-8.450201678183619,3640000000,2.64541361597989
3750000000,-3.67059147248214,3750000000,-86.03165575023353,3750000000,-3.412541416593343,3750000000,-7.862003494280422,3750000000,2.472169804309718
3860000000,-4.000327788200313,3860000000,-84.5778747793242,3860000000,-2.23728626494665,3860000000,-6.781857537350188,3860000000,2.183062465249908
3970000000,-4.366458240317585,3970000000,-83.28257404347752,3970000000,-1.213693336587988,3970000000,-5.717258061116267,3970000000,1.931219245591985
4080000000,-4.775473802952157,4080000000,-82.08734966641784,4080000000,-0.283731492026756,4080000000,-4.843210743073209,4080000000,1.746320286273322
4190000000,-5.235390098111068,4190000000,-80.94782267000126,4190000000,0.5966382069616973,4190000000,-4.167675667582341,4190000000,1.615623621591008
4300000000,-5.756177789523614,4300000000,-79.83411383795027,4300000000,1.456984158251506,4300000000,-3.653847754969872,4300000000,1.522787579702846
4410000000,-6.350337070788457,4410000000,-78.72787791285387,4410000000,2.315366995071259,4410000000,-3.26241020620537,4410000000,1.455641572193409
4520000000,-7.033663561083142,4520000000,-77.61887773384159,4520000000,3.181762801383096,4520000000,-2.961630803798809,4520000000,1.406040014112202
4630000000,-7.826249938461872,4630000000,-76.50224069087882,4630000000,4.060804334971536,4630000000,-2.727900235460874,4630000000,1.368632535022136
4740000000,-8.753708254573633,4740000000,-75.37655996288807,4740000000,4.95367774443215,4740000000,-2.544092177681256,4740000000,1.339872337252452
4850000000,-9.848319037343957,4850000000,-74.24266851146528,4850000000,5.859346769424228,4850000000,-2.397826891065904,4850000000,1.317362837722514
4960000000,-11.14871223187754,4960000000,-73.10286639600368,4960000000,6.77532382567691,4960000000,-2.280102163900515,4960000000,1.299447892785615
5070000000,-12.69248753476574,5070000000,-71.96042296655999,5070000000,7.698166390908811,5070000000,-2.184306673243253,5070000000,1.28495641549554
5180000000,-14.48064154976615,5180000000,-70.81922909964761,5180000000,8.623823503167456,5180000000,-2.105532731245986,5180000000,1.273041982443046
5290000000,-16.34588697768868,5290000000,-69.68352152973029,5290000000,9.547910299008622,5290000000,-2.040104249254122,5290000000,1.263081204450883
5400000000,-17.65245463320375,5400000000,-68.5576418847195,5400000000,10.46594796630965,5400000000,-1.985255790156348,5400000000,1.254609451315737
5510000000,-17.46980678218096,5510000000,-67.44583200583273,5510000000,11.37356751691197,5510000000,-1.938919127174768,5510000000,1.247281583056189
5620000000,-15.97965422876279,5620000000,-66.35210775116494,5620000000,12.26663516729418,5620000000,-1.899590690282813,5620000000,1.240850912177966
5730000000,-14.16342595544094,5730000000,-65.28029532277939,5730000000,13.14121527674767,5730000000,-1.86626697461925,5730000000,1.235163042674643
5840000000,-12.54226221098351,5840000000,-64.23435272575423,5840000000,13.99324822537052,5840000000,-1.838446085158524,5840000000,1.23016295402966
5950000000,-11.24445374235479,5950000000,-63.21912545217573,5950000000,14.81779413083939,5950000000,-1.816201147580695,5950000000,1.225913225436411
6060000000,-10.27659085802705,6060000000,-62.24168276690995,6060000000,15.6076960201227,6060000000,-1.800330270905323,6060000000,1.222617087670079
6170000000,-9.622835882764679,6170000000,-61.31330922338378,6170000000,16.35158782181626,6170000000,-1.792564579080284,6170000000,1.220630181900306
6280000000,-9.266619973427119,6280000000,-60.45199542119806,6280000000,17.03140316192903,6280000000,-1.795744005235095,6280000000,1.220430814881434
6390000000,-9.182933707314685,6390000000,-59.68473194287257,6390000000,17.62008102114083,6390000000,-1.813720841174096,6390000000,1.222512228761174
6500000000,-9.307608390266239,6500000000,-59.0479759202669,6500000000,18.08109879886344,6500000000,-1.850561453653653,6500000000,1.22718835422032
6610000000,-9.485605628087139,6610000000,-58.58378183841481,6610000000,18.37234117274267,6610000000,-1.908657190109169,6610000000,1.234381750930804
6720000000,-9.453410888838805,6720000000,-58.32985629814601,6720000000,18.45604502902604,6720000000,-1.986149581440152,6720000000,1.24353544052547
6830000000,-8.985519808597656,6830000000,-58.30594480422783,6830000000,18.31241239420681,6830000000,-2.075552620466811,6830000000,1.253747785537348
6940000000,-8.121367193883058,6940000000,-58.50429479300638,6940000000,17.94914715147078,6940000000,-2.165682378929305,6940000000,1.264063228077659
7050000000,-7.10380970829759,7050000000,-58.89135365391206,7050000000,17.39975678531687,7050000000,-2.246212513468906,7050000000,1.273734811485474
7160000000,-6.139169160206777,7160000000,-59.41941995959176,7160000000,16.71190093762207,7160000000,-2.311310546001118,7160000000,1.282332731523827
7270000000,-5.316237491589487,7270000000,-60.0400457310464,7270000000,15.93398894698716,7270000000,-2.360060129542361,7270000000,1.289709848201217
7380000000,-4.647179821252923,7380000000,-60.71261038114568,7380000000,15.10660572637563,7380000000,-2.394645736877935,7380000000,1.295904767768448
7490000000,-4.113528610184948,7490000000,-61.40707019767711,7490000000,14.25976211652953,7490000000,-2.418325613009437,7490000000,1.301048496887674
7600000000,-3.689885155288648,7600000000,-62.10308383925035,7600000000,13.41376924050122,7600000000,-2.43419124448683,7600000000,1.305300673418923
7710000000,-3.352836575981855,7710000000,-62.78781611815417,7710000000,12.58143458411249,7710000000,-2.444692664263959,7710000000,1.308814962169886
7820000000,-3.083283683515663,7820000000,-63.4537208638643,7820000000,11.77027900760126,7820000000,-2.45159444162905,7820000000,1.311724384371112
7930000000,-2.866371860169461,7930000000,-64.09677392304195,7930000000,10.98430363169215,7930000000,-2.45609635578333,7930000000,1.31413774473922
8040000000,-2.690749493367364,8040000000,-64.71520901006716,8040000000,10.22525388323108,8040000000,-2.458982938210243,8040000000,1.316141239464392
8150000000,-2.547771610501984,8150000000,-65.30866351821251,8150000000,9.493473589527234,8150000000,-2.460751309097561,8150000000,1.31780194451366
8260000000,-2.430830256461107,8260000000,-65.87761969896459,8260000000,8.788463713235723,8260000000,-2.46170662111263,8260000000,1.319171582095207
8370000000,-2.334837811385964,8370000000,-66.42304617989289,8370000000,8.109240756768004,8370000000,-2.462028838530789,8370000000,1.320289903057416
8480000000,-2.255842181720197,8480000000,-66.94617114527914,8480000000,7.454563511501559,8480000000,-2.461817887608088,8480000000,1.321187486938877
8590000000,-2.190744038697357,8590000000,-67.44834061493839,8590000000,6.823074715834263,8590000000,-2.461123612521574,8590000000,1.321887965009109
8700000000,-2.137089563965952,8700000000,-67.93093124457432,8700000000,6.213388198355797,8700000000,-2.45996543215746,8700000000,1.322409745847762
8810000000,-2.092918032581466,8810000000,-68.39529788728268,8810000000,5.624141266090441,8810000000,-2.458345141091853,8810000000,1.322767338542691
8920000000,-2.056648991801046,8920000000,-68.84274323754491,8920000000,5.05402501615468,8920000000,-2.456255185458848,8920000000,1.322972360688801
9030000000,-2.026998061426517,9030000000,-69.27450144216893,9030000000,4.501800686049105,9030000000,-2.453683961344167,9030000000,1.323034303354309
9140000000,-2.002913525444467,9140000000,-69.69173048312763,9140000000,3.966307237363089,9140000000,-2.450619154537649,9140000000,1.322961109916958
9250000000,-1.983528134463736,9250000000,-70.09551000370477,9250000000,3.446463501258761,9250000000,-2.447049790552728,9250000000,1.322759612563504
9360000000,-1.968122128539689,9360000000,-70.48684244371705,9360000000,2.941267019734513,9360000000,-2.442967434630934,9360000000,1.322435859820942
9470000000,-1.956094610160984,9470000000,-70.86665611616266,9470000000,2.449790950162039,9470000000,-2.438366831700698,9470000000,1.321995360475038
9580000000,-1.946941187601205,9580000000,-71.23580935138774,9580000000,1.971179906837687,9580000000,-2.433246178383168,9580000000,1.321443263185794
9690000000,-1.94023636915487,9690000000,-71.59509515391487,9690000000,1.504645294286676,9690000000,-2.427607155102659,9690000000,1.32078448659749
9800000000,-1.93561958863354,9800000000,-71.94524602367341,9800000000,1.049460480481319,9800000000,-2.42145480403589,9800000000,1.320023811332826
9910000000,-1.932784029940135,9910000000,-72.28693872756553,9910000000,0.6049560239490964,9910000000,-2.414797310701532,9910000000,1.319165942708745
10020000000,-1.931467626802882,10020000000,-72.62079889413981,10020000000,0.1705150819659354,10020000000,-2.407645728395837,10020000000,1.31821555107729
10130000000,-1.931445765990885,10130000000,-72.94740536034239,10130000000,-0.2544309291878361,10130000000,-2.400013672043468,10130000000,1.317177295189779
10240000000,-1.932525334504296,10240000000,-73.26729423548261,10240000000,-0.6704063870373739,10240000000,-2.391916999703506,10240000000,1.316055832854269
10350000000,-1.934539834499451,10350000000,-73.58096267028937,10350000000,-1.07789521667266,10350000000,-2.383373494026543,10350000000,1.314855822234359
10460000000,-1.937345352176492,10460000000,-73.88887233329972,10460000000,-1.47734434763828,10460000000,-2.37440255209551,10460000000,1.313581916449165
10570000000,-1.940817213956551,10570000000,-74.19145260532726,10570000000,-1.869166884671493,10570000000,-2.365024889205428,10570000000,1.312238753557653
10680000000,-1.944847199066804,10680000000,-74.48910350758342,10680000000,-2.253745007760255,10680000000,-2.355262260196096,10680000000,1.310830943563924
10790000000,-1.949341205201305,10790000000,-74.78219838159845,10790000000,-2.631432619578484,10790000000,-2.345137200589125,10790000000,1.309363053723731
10900000000,-1.95421728496199,10900000000,-75.07108633985168,10900000000,-3.00255775907794,10900000000,-2.334672788724315,10900000000,1.307839593132928
11010000000,-1.959403987424136,11010000000,-75.35609450616811,11010000000,-3.367424800138888,11010000000,-2.323892429386435,11010000000,1.306264997346514
11120000000,-1.964838951869227,11120000000,-75.63753006417214,11120000000,-3.726316453398692,11120000000,-2.312819658863203,11120000000,1.304643613583167
11230000000,-1.970467710947055,11230000000,-75.91568213122999,11230000000,-4.079495588481702,11230000000,-2.301477970992763,11230000000,1.302979686916828
11340000000,-1.976242668500967,11340000000,-76.1908234741589,11340000000,-4.427206892674926,11340000000,-2.289890663492942,11340000000,1.301277347735073
11450000000,-1.982122223660706,11450000000,-76.46321208180233,11450000000,-4.769678380880224,11450000000,-2.278080703601928,11450000000,1.299540600635312
11560000000,-1.98807001790635,11560000000,-76.7330926084007,11560000000,-5.107122770488511,11560000000,-2.266070612014925,11560000000,1.297773314865135
11670000000,-1.994054285896022,11670000000,-77.00069770051658,11670000000,-5.439738733578078,11670000000,-2.253882363890573,11670000000,1.295979216333196
11780000000,-2.000047294184686,11780000000,-77.26624921924798,11780000000,-5.767712037821643,11780000000,-2.241537305761101,11780000000,1.294161881186062
11890000000,-2.006024854600234,11890000000,-77.52995936841293,11890000000,-6.091216586357012,11890000000,-2.2290560870569,11890000000,1.292324730895269
12000000000,-2.011965901288892,12000000000,-77.79203173852353,12000000000,-6.410415365990704,12000000000,-2.21645860503583,12000000000,1.290471028783797
